T36C8 10046:886 SEGGER J-Link V6.32f Log File (0001ms, 30530ms total)
T36C8 10046:886 DLL Compiled: Jun 12 2018 14:46:40 (0001ms, 30530ms total)
T36C8 10046:886 Logging started @ 2020-11-30 16:17 (0001ms, 30530ms total)
T36C8 10046:887 JLINK_SetWarnOutHandler(...) (0000ms, 30530ms total)
T36C8 10046:887 JLINK_OpenEx(...)
Firmware: J-Link V9 compiled Apr 20 2018 16:47:26
Hardware: V9.20
Feature(s): RDI, FlashBP, FlashDL, JFlash, GDB
TELNET listener socket opened on port 19021Device "CORTEX-M4" selected.WEBSRV 
Starting webserver (0017ms, 30547ms total)
T36C8 10046:887 WEBSRV Webserver running on local port 19080 (0017ms, 30547ms total)
T36C8 10046:887   returns O.K. (0017ms, 30547ms total)
T36C8 10046:904 JLINK_GetEmuCaps()  returns 0xB9FF7BBF (0001ms, 30548ms total)
T36C8 10046:905 JLINK_TIF_GetAvailable(...) (0000ms, 30548ms total)
T36C8 10046:905 JLINK_SetErrorOutHandler(...) (0000ms, 30548ms total)
T36C8 10046:905 JLINK_ExecCommand("ProjectFile = "D:\item\6G\Keil5_AZ_6G_1\JLinkSettings.ini"", ...). Device "CORTEX-M4" selected.  returns 0x00 (0004ms, 30552ms total)
T36C8 10046:909 JLINK_ExecCommand("Device = HC32F460PETB", ...). Device "CORTEX-M4" selected.  returns 0x00 (0001ms, 30553ms total)
T36C8 10046:911 JLINK_ExecCommand("DisableConnectionTimeout", ...).   returns 0x01 (0000ms, 30554ms total)
T36C8 10046:911 JLINK_GetHardwareVersion()  returns 0x16760 (0000ms, 30554ms total)
T36C8 10046:911 JLINK_GetDLLVersion()  returns 63206 (0000ms, 30554ms total)
T36C8 10046:911 JLINK_GetFirmwareString(...) (0000ms, 30554ms total)
T36C8 10046:911 JLINK_GetDLLVersion()  returns 63206 (0000ms, 30554ms total)
T36C8 10046:911 JLINK_GetCompileDateTime() (0000ms, 30554ms total)
T36C8 10046:911 JLINK_GetFirmwareString(...) (0000ms, 30554ms total)
T36C8 10046:911 JLINK_GetHardwareVersion()  returns 0x16760 (0000ms, 30554ms total)
T36C8 10046:911 JLINK_TIF_Select(JLINKARM_TIF_SWD)  returns 0x00 (0001ms, 30555ms total)
T36C8 10046:912 JLINK_SetSpeed(5000) (0000ms, 30555ms total)
T36C8 10046:912 JLINK_GetId() >0x10B TIF>Found SW-DP with ID 0x2BA01477 >0x0D TIF> >0x28 TIF> >0x0D TIF> >0x28 TIF> >0x0D TIF> >0x28 TIF> >0x0D TIF> >0x28 TIF> >0x0D TIF> >0x21 TIF> >0x0D TIF> >0x28 TIF>Scanning AP map to find all available APs >0x0D TIF> >0x28 TIF> >0x0D TIF> >0x21 TIF> >0x0D TIF> >0x21 TIF> >0x0D TIF> >0x28 TIF> >0x0D TIF> >0x21 TIF> >0x0D TIF> >0x21 TIF>AP[1]: Stopped AP scan as end of AP map has been reachedAP[0]: AHB-AP (IDR: 0x24770011)Iterating through AP map to find AHB-AP to use
 >0x42 TIF> >0x28 TIF> >0x0D TIF> >0x28 TIF> >0x0D TIF> >0x21 TIF> >0x0D TIF> >0x21 TIF> >0x42 TIF> >0x28 TIF> >0x0D TIF> >0x28 TIF> >0x0D TIF> >0x28 TIF> >0x0D TIF> >0x21 TIF> >0x0D TIF> >0x21 TIF>AP[0]: Core foundAP[0]: AHB-AP ROM base: 0xE00FF000 >0x0D TIF> >0x28 TIF> >0x0D TIF> >0x28 TIF> >0x0D TIF> >0x28 TIF> >0x0D TIF> >0x21 TIF> >0x0D TIF> >0x21 TIF>CPUID register: 0x410FC241. Implementer code: 0x41 (ARM)Found Cortex-M4 r0p1, Little endian. -- CPU_ReadMem(4 bytes @ 0xE000EDF0)
 -- CPU_WriteMem(4 bytes @ 0xE000EDF0) -- CPU_ReadMem(4 bytes @ 0xE0002000)FPUnit: 6 code (BP) slots and 2 literal slots -- CPU_ReadMem(4 bytes @ 0xE000EDFC) -- CPU_WriteMem(4 bytes @ 0xE000EDFC) -- CPU_ReadMem(4 bytes @ 0xE0001000) -- CPU_WriteMem(4 bytes @ 0xE0001000) -- CPU_ReadMem(4 bytes @ 0xE000ED88) -- CPU_WriteMem(4 bytes @ 0xE000ED88) -- CPU_ReadMem(4 bytes @ 0xE000ED88) -- CPU_WriteMem(4 bytes @ 0xE000ED88)CoreSight components:ROMTbl[0] @ E00FF000 -- CPU_ReadMem(16 bytes @ 0xE00FF000)
 -- CPU_ReadMem(16 bytes @ 0xE000EFF0) -- CPU_ReadMem(16 bytes @ 0xE000EFE0)ROMTbl[0][0]: E000E000, CID: B105E00D, PID: 000BB00C SCS-M7 -- CPU_ReadMem(16 bytes @ 0xE0001FF0) -- CPU_ReadMem(16 bytes @ 0xE0001FE0)ROMTbl[0][1]: E0001000, CID: B105E00D, PID: 003BB002 DWT -- CPU_ReadMem(16 bytes @ 0xE0002FF0) -- CPU_ReadMem(16 bytes @ 0xE0002FE0)ROMTbl[0][2]: E0002000, CID: B105E00D, PID: 002BB003 FPB -- CPU_ReadMem(16 bytes @ 0xE0000FF0) -- CPU_ReadMem(16 bytes @ 0xE0000FE0)
ROMTbl[0][3]: E0000000, CID: B105E00D, PID: 003BB001 ITM -- CPU_ReadMem(16 bytes @ 0xE00FF010) -- CPU_ReadMem(16 bytes @ 0xE0040FF0) -- CPU_ReadMem(16 bytes @ 0xE0040FE0)ROMTbl[0][4]: E0040000, CID: B105900D, PID: 000BB9A1 TPIU >0x0D TIF> >0x21 TIF>  returns 0x2BA01477 (0122ms, 30677ms total)
T36C8 10047:034 JLINK_GetDLLVersion()  returns 63206 (0000ms, 30677ms total)
T36C8 10047:034 JLINK_CORE_GetFound()  returns 0xE0000FF (0000ms, 30677ms total)
T36C8 10047:034 JLINK_GetDebugInfo(0x100 = JLINKARM_ROM_TABLE_ADDR_INDEX) -- Value=0xE00FF000  returns 0x00 (0000ms, 30677ms total)
T36C8 10047:034 JLINK_GetDebugInfo(0x100 = JLINKARM_ROM_TABLE_ADDR_INDEX) -- Value=0xE00FF000  returns 0x00 (0000ms, 30677ms total)
T36C8 10047:034 JLINK_GetDebugInfo(0x101 = JLINKARM_DEBUG_INFO_ETM_ADDR_INDEX) -- Value=0x00000000  returns 0x00 (0000ms, 30677ms total)
T36C8 10047:034 JLINK_ReadMemEx(0xE0041FF0, 0x0010 Bytes, ..., Flags = 0x02000004) -- CPU_ReadMem(16 bytes @ 0xE0041FF0) - Data: 00 00 00 00 00 00 00 00 00 00 00 00 00 00 00 00  returns 0x10 (0001ms, 30678ms total)
T36C8 10047:035 JLINK_GetDebugInfo(0x102 = JLINKARM_DEBUG_INFO_MTB_ADDR_INDEX) -- Value=0x00000000  returns 0x00 (0000ms, 30678ms total)
T36C8 10047:035 JLINK_GetDebugInfo(0x103 = JLINKARM_DEBUG_INFO_TPIU_ADDR_INDEX) -- Value=0xE0040000  returns 0x00 (0000ms, 30678ms total)
T36C8 10047:035 JLINK_GetDebugInfo(0x104 = JLINKARM_DEBUG_INFO_ITM_ADDR_INDEX) -- Value=0xE0000000  returns 0x00 (0000ms, 30678ms total)
T36C8 10047:035 JLINK_GetDebugInfo(0x105 = JLINKARM_DEBUG_INFO_DWT_ADDR_INDEX) -- Value=0xE0001000  returns 0x00 (0000ms, 30678ms total)
T36C8 10047:036 JLINK_GetDebugInfo(0x106 = JLINKARM_DEBUG_INFO_FPB_ADDR_INDEX) -- Value=0xE0002000  returns 0x00 (0000ms, 30678ms total)
T36C8 10047:036 JLINK_GetDebugInfo(0x107 = JLINKARM_DEBUG_INFO_NVIC_ADDR_INDEX) -- Value=0xE000E000  returns 0x00 (0000ms, 30678ms total)
T36C8 10047:036 JLINK_GetDebugInfo(0x10C = JLINKARM_DEBUG_INFO_DBG_ADDR_INDEX) -- Value=0xE000EDF0  returns 0x00 (0000ms, 30678ms total)
T36C8 10047:036 JLINK_GetDebugInfo(0x01 = Unknown) -- Value=0x00000001  returns 0x00 (0000ms, 30678ms total)
T36C8 10047:036 JLINK_ReadMemU32(0xE000ED00, 0x0001 Items, ...) -- CPU_ReadMem(4 bytes @ 0xE000ED00) - Data: 41 C2 0F 41  returns 0x01 (0000ms, 30678ms total)
T36C8 10047:037 JLINK_GetDebugInfo(0x10F = JLINKARM_DEBUG_INFO_HAS_CORTEX_M_SECURITY_EXT_INDEX) -- Value=0x00000000  returns 0x00 (0000ms, 30679ms total)
T36C8 10047:037 JLINK_SetResetType(JLINKARM_CM3_RESET_TYPE_NORMAL)  returns JLINKARM_CM3_RESET_TYPE_NORMAL (0000ms, 30679ms total)
T36C8 10047:037 JLINK_Reset() -- CPU is running -- CPU_WriteMem(4 bytes @ 0xE000EDF0) -- CPU is running -- CPU_WriteMem(4 bytes @ 0xE000EDFC)Reset: Halt core after reset via DEMCR.VC_CORERESET. >0x35 TIF>Reset: Reset device via AIRCR.SYSRESETREQ. -- CPU is running -- CPU_WriteMem(4 bytes @ 0xE000ED0C) >0x0D TIF> >0x28 TIF> -- CPU_ReadMem(4 bytes @ 0xE000EDF0) -- CPU_ReadMem(4 bytes @ 0xE000EDF0) -- CPU is running -- CPU_WriteMem(4 bytes @ 0xE000EDF0) -- CPU is running
 -- CPU_WriteMem(4 bytes @ 0xE000EDFC) -- CPU_ReadMem(4 bytes @ 0xE000EDF0) -- CPU_WriteMem(4 bytes @ 0xE0002000) -- CPU_ReadMem(4 bytes @ 0xE000EDFC) -- CPU_ReadMem(4 bytes @ 0xE0001000) (0064ms, 30743ms total)
T36C8 10047:102 JLINK_ReadReg(R15 (PC))  returns 0x00000294 (0000ms, 30743ms total)
T36C8 10047:102 JLINK_ReadReg(XPSR)  returns 0x01000000 (0000ms, 30743ms total)
T36C8 10047:102 JLINK_Halt()  returns 0x00 (0000ms, 30743ms total)
T36C8 10047:102 JLINK_ReadMemU32(0xE000EDF0, 0x0001 Items, ...) -- CPU_ReadMem(4 bytes @ 0xE000EDF0) - Data: 03 00 03 00  returns 0x01 (0000ms, 30743ms total)
T36C8 10047:102 JLINK_WriteU32(0xE000EDF0, 0xA05F0003) -- CPU_WriteMem(4 bytes @ 0xE000EDF0)  returns 0x00 (0001ms, 30744ms total)
T36C8 10047:103 JLINK_WriteU32(0xE000EDFC, 0x01000000) -- CPU_WriteMem(4 bytes @ 0xE000EDFC)  returns 0x00 (0000ms, 30744ms total)
T36C8 10047:103 JLINK_GetHWStatus(...)  returns 0x00 (0001ms, 30745ms total)
T36C8 10047:104 JLINK_GetNumBPUnits(Type = 0xFFFFFF00)  returns 0x06 (0000ms, 30745ms total)
T36C8 10047:104 JLINK_GetNumBPUnits(Type = 0xF0)  returns 0x2000 (0000ms, 30745ms total)
T36C8 10047:104 JLINK_GetNumWPUnits()  returns 0x04 (0000ms, 30745ms total)
T36C8 10047:104 JLINK_GetSpeed()  returns 0xFA0 (0000ms, 30745ms total)
T36C8 10047:104 JLINK_ReadMemU32(0xE000E004, 0x0001 Items, ...) -- CPU_ReadMem(4 bytes @ 0xE000E004) - Data: 04 00 00 00  returns 0x01 (0001ms, 30746ms total)
T36C8 10047:105 JLINK_ReadMemU32(0xE000E004, 0x0001 Items, ...) -- CPU_ReadMem(4 bytes @ 0xE000E004) - Data: 04 00 00 00  returns 0x01 (0000ms, 30746ms total)
T36C8 10047:105 JLINK_WriteMemEx(0xE0001000, 0x001C Bytes, ..., Flags = 0x02000004) - Data: 01 00 00 00 00 00 00 00 00 00 00 00 00 00 00 00 ... -- CPU_WriteMem(28 bytes @ 0xE0001000)  returns 0x1C (0000ms, 30746ms total)
T36C8 10047:105 JLINK_ReadReg(R15 (PC))  returns 0x00000294 (0001ms, 30747ms total)
T36C8 10047:106 JLINK_ReadReg(XPSR)  returns 0x01000000 (0000ms, 30747ms total)
T36C8 10047:110 JLINK_ReadMemEx(0xE0001004, 0x0004 Bytes, ..., Flags = 0x02000000) - Data: 00 00 00 00  returns 0x04 (0000ms, 30747ms total)
T36C8 10047:424 JLINK_SetResetType(JLINKARM_CM3_RESET_TYPE_NORMAL)  returns JLINKARM_CM3_RESET_TYPE_NORMAL (0000ms, 30747ms total)
T36C8 10047:424 JLINK_Reset() -- CPU_WriteMem(4 bytes @ 0xE000EDF0) -- CPU_WriteMem(4 bytes @ 0xE000EDFC)Reset: Halt core after reset via DEMCR.VC_CORERESET. >0x35 TIF>Reset: Reset device via AIRCR.SYSRESETREQ. -- CPU_WriteMem(4 bytes @ 0xE000ED0C) >0x0D TIF> >0x28 TIF> -- CPU_ReadMem(4 bytes @ 0xE000EDF0) -- CPU_ReadMem(4 bytes @ 0xE000EDF0) -- CPU_WriteMem(4 bytes @ 0xE000EDF0) -- CPU_WriteMem(4 bytes @ 0xE000EDFC) -- CPU_ReadMem(4 bytes @ 0xE000EDF0) -- CPU_WriteMem(4 bytes @ 0xE0002000)
 -- CPU_ReadMem(4 bytes @ 0xE000EDFC) -- CPU_ReadMem(4 bytes @ 0xE0001000) (0066ms, 30813ms total)
T36C8 10047:490 JLINK_ReadReg(R15 (PC))  returns 0x00000294 (0000ms, 30813ms total)
T36C8 10047:490 JLINK_ReadReg(XPSR)  returns 0x01000000 (0000ms, 30813ms total)
T36C8 10047:490 JLINK_ReadMemEx(0x00000280, 0x003C Bytes, ..., Flags = 0x02000000) -- CPU_ReadMem(60 bytes @ 0x00000280) - Data: DF F8 0C D0 00 F0 D6 F9 00 48 00 47 7D 4D 00 00 ...  returns 0x3C (0001ms, 30814ms total)
T36C8 10048:703 JLINK_ReadReg(R0)  returns 0x00000000 (0000ms, 30814ms total)
T36C8 10048:703 JLINK_ReadReg(R1)  returns 0x40010400 (0000ms, 30814ms total)
T36C8 10048:703 JLINK_ReadReg(R2)  returns 0x1FFF856C (0000ms, 30814ms total)
T36C8 10048:704 JLINK_ReadReg(R3)  returns 0x00000000 (0000ms, 30815ms total)
T36C8 10048:704 JLINK_ReadReg(R4)  returns 0x00000000 (0000ms, 30815ms total)
T36C8 10048:704 JLINK_ReadReg(R5)  returns 0x00000000 (0000ms, 30815ms total)
T36C8 10048:704 JLINK_ReadReg(R6)  returns 0x00000000 (0000ms, 30815ms total)
T36C8 10048:704 JLINK_ReadReg(R7)  returns 0x00000000 (0000ms, 30815ms total)
T36C8 10048:704 JLINK_ReadReg(R8)  returns 0x00000000 (0000ms, 30815ms total)
T36C8 10048:704 JLINK_ReadReg(R9)  returns 0x1FFF8568 (0000ms, 30815ms total)
T36C8 10048:704 JLINK_ReadReg(R10)  returns 0x00000000 (0000ms, 30815ms total)
T36C8 10048:704 JLINK_ReadReg(R11)  returns 0x00000000 (0001ms, 30816ms total)
T36C8 10048:705 JLINK_ReadReg(R12)  returns 0x00000000 (0000ms, 30816ms total)
T36C8 10048:705 JLINK_ReadReg(R13 (SP))  returns 0x1FFFB2E0 (0000ms, 30816ms total)
T36C8 10048:705 JLINK_ReadReg(R14)  returns 0xFFFFFFFF (0000ms, 30816ms total)
T36C8 10048:705 JLINK_ReadReg(R15 (PC))  returns 0x00000294 (0000ms, 30816ms total)
T36C8 10048:705 JLINK_ReadReg(XPSR)  returns 0x01000000 (0000ms, 30816ms total)
T36C8 10048:705 JLINK_ReadReg(MSP)  returns 0x1FFFB2E0 (0000ms, 30816ms total)
T36C8 10048:705 JLINK_ReadReg(PSP)  returns 0x1FFF9000 (0000ms, 30816ms total)
T36C8 10048:705 JLINK_ReadReg(CFBP)  returns 0x00000000 (0001ms, 30817ms total)
T36C8 10048:706 JLINK_ReadReg(FPSCR)  returns 0x00000000 (0003ms, 30820ms total)
T36C8 10048:709 JLINK_ReadReg(FPS0)  returns 0x97BAE5FB (0000ms, 30820ms total)
T36C8 10048:709 JLINK_ReadReg(FPS1)  returns 0xE5C5DBA3 (0001ms, 30821ms total)
T36C8 10048:710 JLINK_ReadReg(FPS2)  returns 0xF745E756 (0000ms, 30821ms total)
T36C8 10048:710 JLINK_ReadReg(FPS3)  returns 0x1D77F335 (0000ms, 30821ms total)
T36C8 10048:710 JLINK_ReadReg(FPS4)  returns 0xD3993EB1 (0000ms, 30821ms total)
T36C8 10048:710 JLINK_ReadReg(FPS5)  returns 0xD57B7BED (0000ms, 30821ms total)
T36C8 10048:710 JLINK_ReadReg(FPS6)  returns 0x7472E3AF (0000ms, 30821ms total)
T36C8 10048:710 JLINK_ReadReg(FPS7)  returns 0xC3D379DE (0000ms, 30821ms total)
T36C8 10048:710 JLINK_ReadReg(FPS8)  returns 0x29F9C61A (0000ms, 30821ms total)
T36C8 10048:710 JLINK_ReadReg(FPS9)  returns 0x92F8F32F (0000ms, 30821ms total)
T36C8 10048:710 JLINK_ReadReg(FPS10)  returns 0x6783ABCA (0001ms, 30822ms total)
T36C8 10048:711 JLINK_ReadReg(FPS11)  returns 0xB6A9EF55 (0000ms, 30822ms total)
T36C8 10048:711 JLINK_ReadReg(FPS12)  returns 0x6F35F6FD (0000ms, 30822ms total)
T36C8 10048:711 JLINK_ReadReg(FPS13)  returns 0xE98021A7 (0000ms, 30822ms total)
T36C8 10048:711 JLINK_ReadReg(FPS14)  returns 0xF35F239A (0000ms, 30822ms total)
T36C8 10048:711 JLINK_ReadReg(FPS15)  returns 0x481662B6 (0000ms, 30822ms total)
T36C8 10048:711 JLINK_ReadReg(FPS16)  returns 0xA37A97E4 (0000ms, 30822ms total)
T36C8 10048:711 JLINK_ReadReg(FPS17)  returns 0x1EC6AF38 (0000ms, 30822ms total)
T36C8 10048:711 JLINK_ReadReg(FPS18)  returns 0xA8826561 (0001ms, 30823ms total)
T36C8 10048:712 JLINK_ReadReg(FPS19)  returns 0xC2FD553F (0000ms, 30823ms total)
T36C8 10048:712 JLINK_ReadReg(FPS20)  returns 0xFC097CFA (0000ms, 30823ms total)
T36C8 10048:712 JLINK_ReadReg(FPS21)  returns 0x2790EF1F (0000ms, 30823ms total)
T36C8 10048:712 JLINK_ReadReg(FPS22)  returns 0x4CE77E5B (0000ms, 30823ms total)
T36C8 10048:712 JLINK_ReadReg(FPS23)  returns 0xB08DCF00 (0000ms, 30823ms total)
T36C8 10048:712 JLINK_ReadReg(FPS24)  returns 0x580D1F46 (0000ms, 30823ms total)
T36C8 10048:712 JLINK_ReadReg(FPS25)  returns 0xB84CA904 (0000ms, 30823ms total)
T36C8 10048:712 JLINK_ReadReg(FPS26)  returns 0x77D0F00D (0000ms, 30823ms total)
T36C8 10048:712 JLINK_ReadReg(FPS27)  returns 0xEF493AEE (0001ms, 30824ms total)
T36C8 10048:713 JLINK_ReadReg(FPS28)  returns 0xBBC66B0D (0000ms, 30824ms total)
T36C8 10048:713 JLINK_ReadReg(FPS29)  returns 0x759E50C5 (0000ms, 30824ms total)
T36C8 10048:713 JLINK_ReadReg(FPS30)  returns 0xD2C36B8B (0000ms, 30824ms total)
T36C8 10048:713 JLINK_ReadReg(FPS31)  returns 0x367632D3 (0000ms, 30824ms total)
T36C8 10048:721 JLINK_ReadMemEx(0x1FFF82E0, 0x0001 Bytes, ..., Flags = 0x02000000) -- CPU_ReadMem(1 bytes @ 0x1FFF82E0) - Data: 2D  returns 0x01 (0000ms, 30824ms total)
T36C8 10048:724 JLINK_ReadMemEx(0x1FFF8036, 0x0001 Bytes, ..., Flags = 0x02000000) -- CPU_ReadMem(1 bytes @ 0x1FFF8036) - Data: FF  returns 0x01 (0001ms, 30825ms total)
T36C8 10048:728 JLINK_ReadMemEx(0x1FFF8039, 0x0001 Bytes, ..., Flags = 0x02000000) -- CPU_ReadMem(1 bytes @ 0x1FFF8039) - Data: BA  returns 0x01 (0001ms, 30826ms total)
T1CF4 10048:754 JLINK_ReadMemEx(0x00000294, 0x0002 Bytes, ..., Flags = 0x02000000) -- CPU_ReadMem(2 bytes @ 0x00000294) - Data: 10 48  returns 0x02 (0001ms, 30827ms total)
T1CF4 10048:755 JLINK_SetBPEx(Addr = 0x00004D7C, Type = 0xFFFFFFF2)  returns 0x00000001 (0000ms, 30827ms total)
T1CF4 10048:755 JLINK_Go() -- CPU_WriteMem(4 bytes @ 0xE0002000) -- CPU_ReadMem(4 bytes @ 0xE0001000) -- CPU_WriteMem(4 bytes @ 0xE0002008) -- CPU_WriteMem(4 bytes @ 0xE000200C) -- CPU_WriteMem(4 bytes @ 0xE0002010) -- CPU_WriteMem(4 bytes @ 0xE0002014) -- CPU_WriteMem(4 bytes @ 0xE0002018) -- CPU_WriteMem(4 bytes @ 0xE000201C) -- CPU_WriteMem(4 bytes @ 0xE0001004) (0002ms, 30829ms total)
T1CF4 10048:858 JLINK_IsHalted()  returns TRUE (0002ms, 30832ms total)
T1CF4 10048:860 JLINK_Halt()  returns 0x00 (0000ms, 30830ms total)
T1CF4 10048:860 JLINK_IsHalted()  returns TRUE (0000ms, 30830ms total)
T1CF4 10048:860 JLINK_IsHalted()  returns TRUE (0000ms, 30830ms total)
T1CF4 10048:860 JLINK_IsHalted()  returns TRUE (0000ms, 30830ms total)
T1CF4 10048:860 JLINK_ReadReg(R15 (PC))  returns 0x00004D7C (0000ms, 30830ms total)
T1CF4 10048:860 JLINK_ReadReg(XPSR)  returns 0x61000000 (0001ms, 30831ms total)
T1CF4 10048:861 JLINK_ClrBPEx(BPHandle = 0x00000001)  returns 0x00 (0000ms, 30831ms total)
T1CF4 10048:861 JLINK_ReadMemU32(0xE000ED30, 0x0001 Items, ...) -- CPU_ReadMem(4 bytes @ 0xE000ED30) - Data: 02 00 00 00  returns 0x01 (0000ms, 30831ms total)
T1CF4 10048:861 JLINK_ReadMemU32(0xE0001028, 0x0001 Items, ...) -- CPU_ReadMem(4 bytes @ 0xE0001028) - Data: 00 00 00 00  returns 0x01 (0001ms, 30832ms total)
T1CF4 10048:862 JLINK_ReadMemU32(0xE0001038, 0x0001 Items, ...) -- CPU_ReadMem(4 bytes @ 0xE0001038) - Data: 00 02 00 00  returns 0x01 (0000ms, 30832ms total)
T1CF4 10048:862 JLINK_ReadMemU32(0xE0001048, 0x0001 Items, ...) -- CPU_ReadMem(4 bytes @ 0xE0001048) - Data: 00 00 00 00  returns 0x01 (0001ms, 30833ms total)
T1CF4 10048:863 JLINK_ReadMemU32(0xE0001058, 0x0001 Items, ...) -- CPU_ReadMem(4 bytes @ 0xE0001058) - Data: 00 00 00 00  returns 0x01 (0000ms, 30833ms total)
T1CF4 10048:863 JLINK_ReadReg(R0)  returns 0x00004D7D (0000ms, 30833ms total)
T1CF4 10048:863 JLINK_ReadReg(R1)  returns 0x1FFFB2E0 (0000ms, 30833ms total)
T1CF4 10048:863 JLINK_ReadReg(R2)  returns 0x00000000 (0001ms, 30834ms total)
T1CF4 10048:864 JLINK_ReadReg(R3)  returns 0x00004C4B (0000ms, 30834ms total)
T1CF4 10048:864 JLINK_ReadReg(R4)  returns 0x00004DD0 (0000ms, 30834ms total)
T1CF4 10048:864 JLINK_ReadReg(R5)  returns 0x00004DD0 (0000ms, 30834ms total)
T1CF4 10048:864 JLINK_ReadReg(R6)  returns 0x00000000 (0000ms, 30834ms total)
T1CF4 10048:864 JLINK_ReadReg(R7)  returns 0x00000000 (0000ms, 30834ms total)
T1CF4 10048:864 JLINK_ReadReg(R8)  returns 0x00000000 (0000ms, 30834ms total)
T1CF4 10048:864 JLINK_ReadReg(R9)  returns 0x1FFF8568 (0000ms, 30834ms total)
T1CF4 10048:864 JLINK_ReadReg(R10)  returns 0x00000000 (0001ms, 30835ms total)
T1CF4 10048:865 JLINK_ReadReg(R11)  returns 0x00000000 (0000ms, 30835ms total)
T1CF4 10048:865 JLINK_ReadReg(R12)  returns 0x00000000 (0000ms, 30835ms total)
T1CF4 10048:865 JLINK_ReadReg(R13 (SP))  returns 0x1FFFB2E0 (0000ms, 30835ms total)
T1CF4 10048:865 JLINK_ReadReg(R14)  returns 0x00000651 (0000ms, 30835ms total)
T1CF4 10048:865 JLINK_ReadReg(R15 (PC))  returns 0x00004D7C (0000ms, 30835ms total)
T1CF4 10048:865 JLINK_ReadReg(XPSR)  returns 0x61000000 (0000ms, 30835ms total)
T1CF4 10048:865 JLINK_ReadReg(MSP)  returns 0x1FFFB2E0 (0000ms, 30835ms total)
T1CF4 10048:865 JLINK_ReadReg(PSP)  returns 0x1FFF9000 (0000ms, 30835ms total)
T1CF4 10048:866 JLINK_ReadReg(CFBP)  returns 0x00000000 (0000ms, 30836ms total)
T1CF4 10048:866 JLINK_ReadReg(FPSCR)  returns 0x00000000 (0003ms, 30839ms total)
T1CF4 10048:869 JLINK_ReadReg(FPS0)  returns 0x97BAE5FB (0000ms, 30839ms total)
T1CF4 10048:869 JLINK_ReadReg(FPS1)  returns 0xE5C5DBA3 (0000ms, 30839ms total)
T1CF4 10048:869 JLINK_ReadReg(FPS2)  returns 0xF745E756 (0000ms, 30839ms total)
T1CF4 10048:869 JLINK_ReadReg(FPS3)  returns 0x1D77F335 (0000ms, 30839ms total)
T1CF4 10048:869 JLINK_ReadReg(FPS4)  returns 0xD3993EB1 (0000ms, 30839ms total)
T1CF4 10048:869 JLINK_ReadReg(FPS5)  returns 0xD57B7BED (0000ms, 30839ms total)
T1CF4 10048:869 JLINK_ReadReg(FPS6)  returns 0x7472E3AF (0000ms, 30839ms total)
T1CF4 10048:869 JLINK_ReadReg(FPS7)  returns 0xC3D379DE (0000ms, 30839ms total)
T1CF4 10048:870 JLINK_ReadReg(FPS8)  returns 0x29F9C61A (0000ms, 30839ms total)
T1CF4 10048:870 JLINK_ReadReg(FPS9)  returns 0x92F8F32F (0000ms, 30839ms total)
T1CF4 10048:870 JLINK_ReadReg(FPS10)  returns 0x6783ABCA (0000ms, 30839ms total)
T1CF4 10048:870 JLINK_ReadReg(FPS11)  returns 0xB6A9EF55 (0000ms, 30839ms total)
T1CF4 10048:870 JLINK_ReadReg(FPS12)  returns 0x6F35F6FD (0000ms, 30839ms total)
T1CF4 10048:870 JLINK_ReadReg(FPS13)  returns 0xE98021A7 (0000ms, 30839ms total)
T1CF4 10048:870 JLINK_ReadReg(FPS14)  returns 0xF35F239A (0000ms, 30839ms total)
T1CF4 10048:870 JLINK_ReadReg(FPS15)  returns 0x481662B6 (0000ms, 30839ms total)
T1CF4 10048:870 JLINK_ReadReg(FPS16)  returns 0xA37A97E4 (0001ms, 30840ms total)
T1CF4 10048:871 JLINK_ReadReg(FPS17)  returns 0x1EC6AF38 (0000ms, 30840ms total)
T1CF4 10048:871 JLINK_ReadReg(FPS18)  returns 0xA8826561 (0000ms, 30840ms total)
T1CF4 10048:871 JLINK_ReadReg(FPS19)  returns 0xC2FD553F (0000ms, 30840ms total)
T1CF4 10048:871 JLINK_ReadReg(FPS20)  returns 0xFC097CFA (0000ms, 30840ms total)
T1CF4 10048:871 JLINK_ReadReg(FPS21)  returns 0x2790EF1F (0000ms, 30840ms total)
T1CF4 10048:871 JLINK_ReadReg(FPS22)  returns 0x4CE77E5B (0000ms, 30840ms total)
T1CF4 10048:871 JLINK_ReadReg(FPS23)  returns 0xB08DCF00 (0000ms, 30840ms total)
T1CF4 10048:871 JLINK_ReadReg(FPS24)  returns 0x580D1F46 (0000ms, 30840ms total)
T1CF4 10048:872 JLINK_ReadReg(FPS25)  returns 0xB84CA904 (0000ms, 30841ms total)
T1CF4 10048:872 JLINK_ReadReg(FPS26)  returns 0x77D0F00D (0000ms, 30841ms total)
T1CF4 10048:872 JLINK_ReadReg(FPS27)  returns 0xEF493AEE (0000ms, 30841ms total)
T1CF4 10048:872 JLINK_ReadReg(FPS28)  returns 0xBBC66B0D (0000ms, 30841ms total)
T1CF4 10048:872 JLINK_ReadReg(FPS29)  returns 0x759E50C5 (0000ms, 30841ms total)
T1CF4 10048:872 JLINK_ReadReg(FPS30)  returns 0xD2C36B8B (0000ms, 30841ms total)
T1CF4 10048:872 JLINK_ReadReg(FPS31)  returns 0x367632D3 (0000ms, 30841ms total)
T36C8 10048:875 JLINK_ReadMemU32(0xE0001004, 0x0001 Items, ...) -- CPU_ReadMem(4 bytes @ 0xE0001004) - Data: FF 4C 00 00  returns 0x01 (0000ms, 30841ms total)
T36C8 10048:875 JLINK_ReadMemEx(0x1FFF82E0, 0x0001 Bytes, ..., Flags = 0x02000000) -- CPU_ReadMem(1 bytes @ 0x1FFF82E0) - Data: 00  returns 0x01 (0001ms, 30842ms total)
T36C8 10048:876 JLINK_ReadMemEx(0x1FFF8036, 0x0001 Bytes, ..., Flags = 0x02000000) -- CPU_ReadMem(1 bytes @ 0x1FFF8036) - Data: 00  returns 0x01 (0000ms, 30842ms total)
T36C8 10048:876 JLINK_ReadMemEx(0x1FFF8039, 0x0001 Bytes, ..., Flags = 0x02000000) -- CPU_ReadMem(1 bytes @ 0x1FFF8039) - Data: 00  returns 0x01 (0001ms, 30843ms total)
T36C8 10048:879 JLINK_ReadMemEx(0x00004C7C, 0x003C Bytes, ..., Flags = 0x02000000) -- CPU_ReadMem(128 bytes @ 0x00004C40) -- Updating DA cache (128 bytes @ 0x00004C40) -- Read from DA cache (60 bytes @ 0x00004C7C) - Data: C5 17 00 EB D5 65 6D 11 05 EB 45 05 25 26 06 EB ...  returns 0x3C (0001ms, 30844ms total)
T36C8 10048:880 JLINK_ReadMemEx(0x00004CB8, 0x003C Bytes, ..., Flags = 0x02000000) -- CPU_ReadMem(64 bytes @ 0x00004CC0) -- Updating DA cache (64 bytes @ 0x00004CC0) -- Read from DA cache (60 bytes @ 0x00004CB8) - Data: 0B D1 0B 88 10 68 63 F3 08 00 10 60 B1 F9 02 30 ...  returns 0x3C (0001ms, 30845ms total)
T36C8 10048:881 JLINK_ReadMemEx(0x00004CF4, 0x003C Bytes, ..., Flags = 0x02000000) -- CPU_ReadMem(64 bytes @ 0x00004D00) -- Updating DA cache (64 bytes @ 0x00004D00) -- Read from DA cache (60 bytes @ 0x00004CF4) - Data: 00 20 08 80 1F 48 00 88 40 1C 1E 49 08 80 08 46 ...  returns 0x3C (0001ms, 30846ms total)
T36C8 10048:882 JLINK_ReadMemEx(0x00004D30, 0x003C Bytes, ..., Flags = 0x02000000) -- CPU_ReadMem(64 bytes @ 0x00004D40) -- Updating DA cache (64 bytes @ 0x00004D40) -- Read from DA cache (60 bytes @ 0x00004D30) - Data: FE F7 A6 FB 1B E0 40 21 04 20 FE F7 93 FB 80 21 ...  returns 0x3C (0001ms, 30847ms total)
T36C8 10048:883 JLINK_ReadMemEx(0x00004D6C, 0x003C Bytes, ..., Flags = 0x02000000) -- CPU_ReadMem(64 bytes @ 0x00004D80) -- Updating DA cache (64 bytes @ 0x00004D80) -- Read from DA cache (60 bytes @ 0x00004D6C) - Data: 00 BF 00 BF 10 BD 00 00 04 80 FF 1F 06 80 FF 1F ...  returns 0x3C (0000ms, 30847ms total)
T1CF4 10050:747 JLINK_ReadMemEx(0x00004D7C, 0x0002 Bytes, ..., Flags = 0x02000000) -- Read from DA cache (2 bytes @ 0x00004D7C) - Data: FE F7  returns 0x02 (0001ms, 30848ms total)
T1CF4 10050:748 JLINK_Go() -- CPU_ReadMem(4 bytes @ 0xE0001000) -- CPU_WriteMem(4 bytes @ 0xE0002008) (0002ms, 30850ms total)
T1CF4 10050:851 JLINK_IsHalted()  returns FALSE (0000ms, 30850ms total)
T1CF4 10050:952 JLINK_IsHalted()  returns FALSE (0000ms, 30850ms total)
T1CF4 10051:053 JLINK_IsHalted()  returns FALSE (0000ms, 30850ms total)
T1CF4 10051:154 JLINK_IsHalted()  returns FALSE (0000ms, 30850ms total)
T1CF4 10051:255 JLINK_IsHalted()  returns FALSE (0000ms, 30850ms total)
T1CF4 10051:357 JLINK_ReadMemU32(0xE0001004, 0x0001 Items, ...) -- CPU_ReadMem(4 bytes @ 0xE0001004) - Data: 74 57 37 07  returns 0x01 (0000ms, 30850ms total)
T36C8 10051:357 JLINK_ReadMemEx(0x1FFF82E0, 0x0001 Bytes, ..., Flags = 0x02000000) -- CPU_ReadMem(1 bytes @ 0x1FFF82E0) - Data: 00  returns 0x01 (0001ms, 30851ms total)
T36C8 10051:358 JLINK_ReadMemEx(0x1FFF8036, 0x0001 Bytes, ..., Flags = 0x02000000) -- CPU_ReadMem(1 bytes @ 0x1FFF8036) - Data: 00  returns 0x01 (0001ms, 30852ms total)
T36C8 10051:359 JLINK_ReadMemEx(0x1FFF8039, 0x0001 Bytes, ..., Flags = 0x02000000) -- CPU_ReadMem(1 bytes @ 0x1FFF8039) - Data: 00  returns 0x01 (0001ms, 30853ms total)
T1CF4 10051:360 JLINK_IsHalted()  returns FALSE (0001ms, 30854ms total)
